date Thu Oct 3 11:12:38.259 am 2024
base hex  timestamps absolute
internal events logged
// version 10.0.0
Begin TriggerBlock Thu Oct 3 11:12:38.259 am 2024
0.013503 1  2B0   Rx   d 8 05 2C 5A 57 00 00 00 00
0.030217 1  111   Rx   d 8 00 3E 01 00 00 00 00 00
0.074224 1  2B0   Rx   d 8 05 1D 57 59 00 00 00 00
0.096230 1  111   Rx   d 8 00 42 05 00 00 00 00 00
0.106493 1  2B0   Rx   d 8 05 3E 5C 4B 00 00 00 00
0.118593 1  111   Rx   d 8 00 3B 04 00 00 00 00 00
0.130471 1  2B0   Rx   d 8 05 55 58 4A 00 00 00 00
0.151699 1  111   Rx   d 8 00 34 01 00 00 00 00 00
0.196062 1  2B0   Rx   d 8 06 33 55 4A 00 00 00 00
0.243775 1  111   Rx   d 8 00 39 02 00 00 00 00 00
0.284954 1  2B0   Rx   d 8 05 54 5C 46 00 00 00 00
0.313346 1  111   Rx   d 8 00 35 02 00 00 00 00 00
0.328218 1  2B0   Rx   d 8 06 A3 5B 53 00 00 00 00
0.358688 1  111   Rx   d 8 00 3A 01 00 00 00 00 00
0.371290 1  2B0   Rx   d 8 05 8D 56 51 00 00 00 00
0.384735 1  111   Rx   d 8 00 32 03 00 00 00 00 00
0.431654 1  2B0   Rx   d 8 05 74 5C 48 00 00 00 00
0.445718 1  111   Rx   d 8 00 3B 05 00 00 00 00 00
0.483797 1  2B0   Rx   d 8 05 9B 5E 4F 00 00 00 00
0.518510 1  111   Rx   d 8 00 3D 03 00 00 00 00 00
0.537742 1  2B0   Rx   d 8 06 04 59 52 00 00 00 00
0.578933 1  111   Rx   d 8 00 44 04 00 00 00 00 00
0.625316 1  2B0   Rx   d 8 06 14 58 50 00 00 00 00
0.645832 1  111   Rx   d 8 00 34 02 00 00 00 00 00
0.675756 1  2B0   Rx   d 8 06 7C 56 4D 00 00 00 00
0.718845 1  111   Rx   d 8 00 3F 05 00 00 00 00 00
0.765854 1  2B0   Rx   d 8 06 82 5C 57 00 00 00 00
0.802018 1  111   Rx   d 8 00 42 04 00 00 00 00 00
0.845509 1  2B0   Rx   d 8 05 73 59 54 00 00 00 00
0.873423 1  111   Rx   d 8 00 36 02 00 00 00 00 00
0.889326 1  2B0   Rx   d 8 06 33 5A 47 00 00 00 00
0.931578 1  111   Rx   d 8 00 38 05 00 00 00 00 00
0.946209 1  2B0   Rx   d 8 05 4C 58 47 00 00 00 00
0.974406 1  111   Rx   d 8 00 3F 05 00 00 00 00 00
0.985304 1  2B0   Rx   d 8 05 BA 59 4F 00 00 00 00
1.015204 1  111   Rx   d 8 00 33 01 00 00 00 00 00
1.035599 1  2B0   Rx   d 8 05 F9 59 46 00 00 00 00
1.065535 1  111   Rx   d 8 00 32 03 00 00 00 00 00
1.089505 1  2B0   Rx   d 8 06 5F 55 46 00 00 00 00
1.122634 1  111   Rx   d 8 00 43 01 00 00 00 00 00
1.137632 1  2B0   Rx   d 8 05 F8 58 57 00 00 00 00
1.154149 1  111   Rx   d 8 00 40 04 00 00 00 00 00
1.200016 1  2B0   Rx   d 8 05 96 5C 4B 00 00 00 00
1.214694 1  111   Rx   d 8 00 33 04 00 00 00 00 00
1.235650 1  2B0   Rx   d 8 05 57 55 59 00 00 00 00
1.263673 1  111   Rx   d 8 00 45 04 00 00 00 00 00
1.288874 1  2B0   Rx   d 8 05 5D 5B 56 00 00 00 00
1.322019 1  111   Rx   d 8 00 33 03 00 00 00 00 00
1.341788 1  2B0   Rx   d 8 05 50 56 54 00 00 00 00
1.370509 1  111   Rx   d 8 00 38 01 00 00 00 00 00
1.408252 1  2B0   Rx   d 8 05 5B 5B 48 00 00 00 00
1.457393 1  111   Rx   d 8 00 33 01 00 00 00 00 00
1.483844 1  2B0   Rx   d 8 06 08 5E 4B 00 00 00 00
1.518206 1  111   Rx   d 8 00 40 04 00 00 00 00 00
1.530022 1  2B0   Rx   d 8 05 8F 55 52 00 00 00 00
1.553201 1  111   Rx   d 8 00 36 04 00 00 00 00 00
1.598370 1  2B0   Rx   d 8 06 4F 57 4E 00 00 00 00
1.646985 1  111   Rx   d 8 00 33 05 00 00 00 00 00
1.659772 1  2B0   Rx   d 8 05 88 5A 46 00 00 00 00
1.671861 1  111   Rx   d 8 00 3A 03 00 00 00 00 00
1.695251 1  2B0   Rx   d 8 05 B8 55 57 00 00 00 00
1.741020 1  111   Rx   d 8 00 41 04 00 00 00 00 00
1.769328 1  2B0   Rx   d 8 05 83 55 54 00 00 00 00
1.779885 1  111   Rx   d 8 00 3D 05 00 00 00 00 00
1.796348 1  2B0   Rx   d 8 06 52 5B 4D 00 00 00 00
1.818246 1  111   Rx   d 8 00 36 03 00 00 00 00 00
1.850861 1  2B0   Rx   d 8 05 89 5C 4F 00 00 00 00
1.894524 1  111   Rx   d 8 00 3D 02 00 00 00 00 00
1.942048 1  2B0   Rx   d 8 06 6F 5C 4D 00 00 00 00
1.969202 1  111   Rx   d 8 00 35 03 00 00 00 00 00
2.011482 1  2B0   Rx   d 8 05 4C 58 4C 00 00 00 00
2.058386 1  111   Rx   d 8 00 44 04 00 00 00 00 00
2.098413 1  2B0   Rx   d 8 05 95 58 59 00 00 00 00
2.139480 1  111   Rx   d 8 00 38 03 00 00 00 00 00
2.154154 1  2B0   Rx   d 8 05 82 56 58 00 00 00 00
2.173168 1  111   Rx   d 8 00 33 03 00 00 00 00 00
2.205241 1  2B0   Rx   d 8 06 9A 56 4E 00 00 00 00
2.241413 1  111   Rx   d 8 00 44 02 00 00 00 00 00
2.279169 1  2B0   Rx   d 8 06 19 58 51 00 00 00 00
2.319075 1  111   Rx   d 8 00 32 01 00 00 00 00 00
2.330674 1  2B0   Rx   d 8 06 3B 56 48 00 00 00 00
2.363485 1  111   Rx   d 8 00 34 02 00 00 00 00 00
2.408603 1  2B0   Rx   d 8 06 48 59 54 00 00 00 00
2.450221 1  111   Rx   d 8 00 37 03 00 00 00 00 00
2.484798 1  2B0   Rx   d 8 05 48 5B 59 00 00 00 00
2.502133 1  111   Rx   d 8 00 3D 03 00 00 00 00 00
2.542776 1  2B0   Rx   d 8 05 DE 56 4E 00 00 00 00
2.569336 1  111   Rx   d 8 00 41 03 00 00 00 00 00
2.614390 1  2B0   Rx   d 8 06 31 55 4A 00 00 00 00
2.664324 1  111   Rx   d 8 00 38 03 00 00 00 00 00
2.675847 1  2B0   Rx   d 8 05 4A 55 56 00 00 00 00
2.711756 1  111   Rx   d 8 00 35 01 00 00 00 00 00
2.726519 1  2B0   Rx   d 8 05 93 57 55 00 00 00 00
2.767832 1  111   Rx   d 8 00 42 02 00 00 00 00 00
2.814053 1  2B0   Rx   d 8 06 50 57 46 00 00 00 00
2.837334 1  111   Rx   d 8 00 3B 01 00 00 00 00 00
2.856265 1  2B0   Rx   d 8 06 14 5C 59 00 00 00 00
2.895574 1  111   Rx   d 8 00 35 03 00 00 00 00 00
2.925382 1  2B0   Rx   d 8 05 95 56 52 00 00 00 00
2.967936 1  111   Rx   d 8 00 38 02 00 00 00 00 00
3.008297 1  2B0   Rx   d 8 05 CE 5B 46 00 00 00 00
3.050058 1  111   Rx   d 8 00 40 02 00 00 00 00 00
3.075168 1  2B0   Rx   d 8 05 83 59 4E 00 00 00 00
3.090822 1  111   Rx   d 8 00 34 02 00 00 00 00 00
3.127447 1  2B0   Rx   d 8 06 1B 5A 4C 00 00 00 00
3.148994 1  111   Rx   d 8 00 44 03 00 00 00 00 00
3.179123 1  2B0   Rx   d 8 05 31 59 4D 00 00 00 00
3.208541 1  111   Rx   d 8 00 38 01 00 00 00 00 00
3.254185 1  2B0   Rx   d 8 05 C5 5A 50 00 00 00 00
3.295274 1  111   Rx   d 8 00 36 03 00 00 00 00 00
3.343817 1  2B0   Rx   d 8 05 A3 5C 4F 00 00 00 00
3.362772 1  111   Rx   d 8 00 36 01 00 00 00 00 00
3.380090 1  2B0   Rx   d 8 05 40 58 52 00 00 00 00
3.393606 1  111   Rx   d 8 00 33 02 00 00 00 00 00
3.420270 1  2B0   Rx   d 8 05 C2 59 51 00 00 00 00
3.441157 1  111   Rx   d 8 00 44 03 00 00 00 00 00
3.452995 1  2B0   Rx   d 8 05 5C 5B 47 00 00 00 00
3.468772 1  111   Rx   d 8 00 37 04 00 00 00 00 00
3.499727 1  2B0   Rx   d 8 06 46 5B 4E 00 00 00 00
3.513067 1  111   Rx   d 8 00 3A 05 00 00 00 00 00
3.543983 1  2B0   Rx   d 8 06 19 55 47 00 00 00 00
3.559923 1  111   Rx   d 8 00 3D 04 00 00 00 00 00
3.597695 1  2B0   Rx   d 8 05 7C 55 52 00 00 00 00
3.620913 1  111   Rx   d 8 00 37 05 00 00 00 00 00
3.655614 1  2B0   Rx   d 8 06 7E 5B 59 00 00 00 00
3.699580 1  111   Rx   d 8 00 34 01 00 00 00 00 00
3.733615 1  2B0   Rx   d 8 05 F9 5E 51 00 00 00 00
3.762445 1  111   Rx   d 8 00 33 02 00 00 00 00 00
3.772577 1  2B0   Rx   d 8 06 35 59 4D 00 00 00 00
3.790788 1  111   Rx   d 8 00 44 04 00 00 00 00 00
3.803307 1  2B0   Rx   d 8 06 9C 5E 51 00 00 00 00
3.818140 1  111   Rx   d 8 00 3A 02 00 00 00 00 00
3.834254 1  2B0   Rx   d 8 05 42 5B 49 00 00 00 00
3.844827 1  111   Rx   d 8 00 45 05 00 00 00 00 00
3.888645 1  2B0   Rx   d 8 06 0A 55 48 00 00 00 00
3.898828 1  111   Rx   d 8 00 3D 03 00 00 00 00 00
3.935888 1  2B0   Rx   d 8 06 56 59 54 00 00 00 00
3.983022 1  111   Rx   d 8 00 36 01 00 00 00 00 00
4.024403 1  2B0   Rx   d 8 05 C2 5D 4C 00 00 00 00
4.054702 1  111   Rx   d 8 00 3D 02 00 00 00 00 00
4.070782 1  2B0   Rx   d 8 05 43 59 4D 00 00 00 00
4.083903 1  111   Rx   d 8 00 34 03 00 00 00 00 00
4.129696 1  2B0   Rx   d 8 06 06 59 46 00 00 00 00
4.172948 1  111   Rx   d 8 00 40 05 00 00 00 00 00
4.194030 1  2B0   Rx   d 8 05 68 5E 4E 00 00 00 00
4.209506 1  111   Rx   d 8 00 41 03 00 00 00 00 00
4.254276 1  2B0   Rx   d 8 06 88 5C 4F 00 00 00 00
4.292691 1  111   Rx   d 8 00 42 03 00 00 00 00 00
4.314701 1  2B0   Rx   d 8 06 55 59 51 00 00 00 00
4.357217 1  111   Rx   d 8 00 3B 02 00 00 00 00 00
4.405131 1  2B0   Rx   d 8 05 F8 5D 4D 00 00 00 00
4.448074 1  111   Rx   d 8 00 43 05 00 00 00 00 00
4.487249 1  2B0   Rx   d 8 05 D5 5C 4F 00 00 00 00
4.517250 1  111   Rx   d 8 00 43 02 00 00 00 00 00
4.544849 1  2B0   Rx   d 8 06 48 5C 51 00 00 00 00
4.591747 1  111   Rx   d 8 00 41 04 00 00 00 00 00
4.608877 1  2B0   Rx   d 8 05 C1 55 49 00 00 00 00
4.625664 1  111   Rx   d 8 00 43 02 00 00 00 00 00
4.667588 1  2B0   Rx   d 8 05 80 5C 53 00 00 00 00
4.708156 1  111   Rx   d 8 00 3D 01 00 00 00 00 00
4.744180 1  2B0   Rx   d 8 05 F3 5D 54 00 00 00 00
4.758392 1  111   Rx   d 8 00 45 01 00 00 00 00 00
4.786056 1  2B0   Rx   d 8 05 B2 57 49 00 00 00 00
4.831778 1  111   Rx   d 8 00 36 05 00 00 00 00 00
4.875911 1  2B0   Rx   d 8 06 02 58 54 00 00 00 00
4.907156 1  111   Rx   d 8 00 3E 02 00 00 00 00 00
4.954530 1  2B0   Rx   d 8 06 0B 59 46 00 00 00 00
4.971456 1  111   Rx   d 8 00 39 03 00 00 00 00 00
4.996577 1  2B0   Rx   d 8 05 82 59 4B 00 00 00 00
5.011341 1  111   Rx   d 8 00 42 03 00 00 00 00 00
5.025116 1  2B0   Rx   d 8 06 2B 58 4C 00 00 00 00
5.052320 1  111   Rx   d 8 00 34 01 00 00 00 00 00
5.088562 1  2B0   Rx   d 8 05 71 5D 59 00 00 00 00
5.100272 1  111   Rx   d 8 00 35 01 00 00 00 00 00
5.125918 1  2B0   Rx   d 8 05 4E 56 4A 00 00 00 00
5.136418 1  111   Rx   d 8 00 36 03 00 00 00 00 00
5.157178 1  2B0   Rx   d 8 05 22 55 57 00 00 00 00
5.180018 1  111   Rx   d 8 00 35 02 00 00 00 00 00
5.191547 1  2B0   Rx   d 8 05 F0 55 46 00 00 00 00
5.207620 1  111   Rx   d 8 00 3E 01 00 00 00 00 00
5.244914 1  2B0   Rx   d 8 05 DA 58 53 00 00 00 00
5.293066 1  111   Rx   d 8 00 40 02 00 00 00 00 00
5.332686 1  2B0   Rx   d 8 06 4B 56 48 00 00 00 00
5.368691 1  111   Rx   d 8 00 37 05 00 00 00 00 00
5.384181 1  2B0   Rx   d 8 06 14 5C 4B 00 00 00 00
5.432275 1  111   Rx   d 8 00 32 04 00 00 00 00 00
5.444747 1  2B0   Rx   d 8 05 1B 5D 57 00 00 00 00
5.468553 1  111   Rx   d 8 00 38 05 00 00 00 00 00
5.505430 1  2B0   Rx   d 8 05 F5 5D 54 00 00 00 00
5.552006 1  111   Rx   d 8 00 40 05 00 00 00 00 00
5.597605 1  2B0   Rx   d 8 06 61 59 4D 00 00 00 00
5.643515 1  111   Rx   d 8 00 32 02 00 00 00 00 00
5.682228 1  2B0   Rx   d 8 05 AF 59 4A 00 00 00 00
5.719717 1  111   Rx   d 8 00 3E 01 00 00 00 00 00
5.739431 1  2B0   Rx   d 8 05 4F 5B 48 00 00 00 00
5.753218 1  111   Rx   d 8 00 3B 01 00 00 00 00 00
5.778711 1  2B0   Rx   d 8 05 FF 5E 53 00 00 00 00
5.803639 1  111   Rx   d 8 00 34 04 00 00 00 00 00
5.848190 1  2B0   Rx   d 8 05 60 5C 58 00 00 00 00
5.887491 1  111   Rx   d 8 00 34 04 00 00 00 00 00
